time	V(A,N016)	I(L1)
0.000000000000000e+00	-1.039944e+02	2.207929e+00
1.681172311224222e-07	-1.039941e+02	2.205810e+00
2.129280307801296e-07	-1.039940e+02	2.205245e+00
3.149092828377831e-07	-1.039938e+02	2.203960e+00
3.573514702585878e-07	-1.039937e+02	2.203425e+00
3.969086474556183e-07	-1.039936e+02	2.202926e+00
4.348418222860362e-07	-1.039935e+02	2.202448e+00
4.763010782830868e-07	-1.039934e+02	2.201926e+00
5.201204431037887e-07	-1.039933e+02	2.201374e+00
5.714745988823211e-07	-1.039932e+02	2.200727e+00
6.332027274527641e-07	-1.039931e+02	2.199949e+00
7.111928834284409e-07	-1.039930e+02	2.198966e+00
8.123378393079528e-07	-1.039928e+02	2.197692e+00
9.538700908515163e-07	-1.039925e+02	2.195909e+00
1.133225878184596e-06	-1.039921e+02	2.193651e+00
1.443224392230769e-06	-1.039915e+02	2.189747e+00
1.739088032078756e-06	-1.039909e+02	2.186023e+00
2.207801264173664e-06	-1.039899e+02	2.180126e+00
3.701064871318438e-06	-1.039869e+02	2.161359e+00
6.787153044616329e-06	-1.039805e+02	2.122679e+00
1.058866165203759e-05	-1.039724e+02	2.075239e+00
1.819167886688011e-05	-1.039553e+02	1.981047e+00
3.339771329656516e-05	-1.039175e+02	1.794425e+00
4.373430232125844e-05	-1.038873e+02	1.668993e+00
5.489695026281508e-05	-1.038489e+02	1.535193e+00
6.610129332336109e-05	-1.038067e+02	1.402289e+00
7.391023758527085e-05	-1.037763e+02	1.310585e+00
8.260809511635714e-05	-1.037422e+02	1.209395e+00
9.112849092199338e-05	-1.037091e+02	1.111203e+00
1.027285447743990e-04	-1.036644e+02	9.791101e-01
1.203313772101880e-04	-1.035978e+02	7.821272e-01
1.504647270735848e-04	-1.034866e+02	4.534545e-01
1.910204952124787e-04	-1.033424e+02	2.708139e-02
2.464558013367604e-04	-1.031552e+02	-5.266112e-01
3.208306711570824e-04	-1.029148e+02	-1.237231e+00
3.210214060203644e-04	-1.029142e+02	-1.238992e+00
3.214028757469282e-04	-1.029130e+02	-1.242444e+00
3.290711480017743e-04	-1.028897e+02	-1.311283e+00
3.367394202566203e-04	-1.028666e+02	-1.379675e+00
3.444076925114663e-04	-1.028436e+02	-1.447621e+00
3.520759647663123e-04	-1.028208e+02	-1.515120e+00
3.597442370211583e-04	-1.027981e+02	-1.582173e+00
3.674125092760043e-04	-1.027756e+02	-1.648780e+00
3.750807815308503e-04	-1.027532e+02	-1.714940e+00
3.753957515685337e-04	-1.027523e+02	-1.717642e+00
3.758157116187794e-04	-1.027510e+02	-1.721234e+00
3.766556317192672e-04	-1.027486e+02	-1.728413e+00
3.783354719202464e-04	-1.027438e+02	-1.742748e+00
3.816951523222013e-04	-1.027341e+02	-1.771366e+00
3.825350724226892e-04	-1.027317e+02	-1.778506e+00
3.842674076299478e-04	-1.027267e+02	-1.793210e+00
3.845823776676312e-04	-1.027258e+02	-1.795880e+00
3.859123878658180e-04	-1.027220e+02	-1.807146e+00
3.859140283347627e-04	-1.027220e+02	-1.807160e+00
3.859148518394473e-04	-1.027220e+02	-1.807167e+00
3.859153438342568e-04	-1.027220e+02	-1.807171e+00
3.859153792517833e-04	-1.027220e+02	-1.807172e+00
3.859154500868364e-04	-1.027220e+02	-1.807172e+00
3.859155917569426e-04	-1.027220e+02	-1.807174e+00
3.859157297161249e-04	-1.027220e+02	-1.807175e+00
3.859158607342171e-04	-1.027220e+02	-1.807176e+00
3.859159838500298e-04	-1.027220e+02	-1.807177e+00
3.859161461246888e-04	-1.027220e+02	-1.807178e+00
3.859163706775685e-04	-1.027220e+02	-1.807180e+00
3.859165816025960e-04	-1.027220e+02	-1.807182e+00
3.859167137811384e-04	-1.027220e+02	-1.807183e+00
3.859168796787223e-04	-1.027220e+02	-1.807184e+00
3.859169950971506e-04	-1.027220e+02	-1.807185e+00
3.859169953517351e-04	-1.027220e+02	-1.807185e+00
3.859179953517346e-04	-1.027220e+02	-1.807194e+00
3.859189953517340e-04	-1.027220e+02	-1.807202e+00
3.859191203517340e-04	-1.027220e+02	-1.807203e+00
3.859192871336348e-04	-1.027220e+02	-1.807205e+00
3.859193729454161e-04	-1.027220e+02	-1.807206e+00
3.859194979454160e-04	-1.027220e+02	-1.807207e+00
3.859196229454159e-04	-1.027220e+02	-1.807208e+00
3.859197479454159e-04	-1.027220e+02	-1.807209e+00
3.859199005498103e-04	-1.027220e+02	-1.807210e+00
3.859200750493327e-04	-1.027220e+02	-1.807212e+00
3.859203052326600e-04	-1.027220e+02	-1.807213e+00
3.859205701041944e-04	-1.027220e+02	-1.807216e+00
3.859210998472667e-04	-1.027220e+02	-1.807220e+00
3.859219055830157e-04	-1.027220e+02	-1.807227e+00
3.859233382308598e-04	-1.027220e+02	-1.807239e+00
3.859255027182686e-04	-1.027220e+02	-1.807257e+00
3.859277565844248e-04	-1.027219e+02	-1.807276e+00
3.859288072654669e-04	-1.027219e+02	-1.807285e+00
3.859293794717389e-04	-1.027219e+02	-1.807290e+00
3.859297014762175e-04	-1.027219e+02	-1.807293e+00
3.859299632780096e-04	-1.027219e+02	-1.807295e+00
3.859299944425389e-04	-1.027219e+02	-1.807295e+00
3.859300567716946e-04	-1.027219e+02	-1.807296e+00
3.859310567716941e-04	-1.027221e+02	-1.807305e+00
3.859320567716935e-04	-1.027238e+02	-1.807313e+00
3.859330567716930e-04	-1.027358e+02	-1.807321e+00
3.859340567716925e-04	-1.027802e+02	-1.807330e+00
3.859350567716920e-04	-1.028597e+02	-1.807338e+00
3.859360567716914e-04	-1.029272e+02	-1.807347e+00
3.859370567716909e-04	-1.029457e+02	-1.807355e+00
3.859380567716904e-04	-1.029320e+02	-1.807364e+00
3.859390567716899e-04	-1.029108e+02	-1.807372e+00
3.859400567716893e-04	-1.028897e+02	-1.807381e+00
3.859410567716888e-04	-1.028701e+02	-1.807389e+00
3.859420567716883e-04	-1.028515e+02	-1.807398e+00
3.859430567716877e-04	-1.028309e+02	-1.807406e+00
3.859440567716872e-04	-1.027767e+02	-1.807415e+00
3.859450567716867e-04	-1.026458e+02	-1.807423e+00
3.859460567716862e-04	-1.024430e+02	-1.807432e+00
3.859470567716856e-04	-1.021978e+02	-1.807440e+00
3.859481298068394e-04	-1.018973e+02	-1.807449e+00
3.859500196217967e-04	-1.012983e+02	-1.807465e+00
3.859512349531705e-04	-1.008056e+02	-1.807475e+00
3.859519827067205e-04	-1.002889e+02	-1.807481e+00
3.859524626965496e-04	-9.967383e+01	-1.807485e+00
3.859530103356157e-04	-9.862720e+01	-1.807489e+00
3.859534931993855e-04	-9.746833e+01	-1.807493e+00
3.859541098320159e-04	-9.569232e+01	-1.807498e+00
3.859551339997561e-04	-9.224050e+01	-1.807506e+00
3.859562643578271e-04	-8.782267e+01	-1.807514e+00
3.859577141414085e-04	-8.134247e+01	-1.807523e+00
3.859592717793299e-04	-7.358472e+01	-1.807533e+00
3.859607444843052e-04	-6.557257e+01	-1.807540e+00
3.859623592351140e-04	-5.617402e+01	-1.807547e+00
3.859638337273298e-04	-4.713154e+01	-1.807552e+00
3.859655904479564e-04	-3.590339e+01	-1.807556e+00
3.859674413642725e-04	-2.369851e+01	-1.807558e+00
3.859697657306975e-04	-8.043045e+00	-1.807557e+00
3.859723555692217e-04	9.498672e+00	-1.807552e+00
3.859757430772076e-04	3.198531e+01	-1.807538e+00
3.859797701677367e-04	5.667815e+01	-1.807512e+00
3.859851630246026e-04	8.534961e+01	-1.807465e+00
3.859874468363951e-04	9.485492e+01	-1.807441e+00
3.859890543916923e-04	9.956807e+01	-1.807423e+00
3.859901880143846e-04	1.018102e+02	-1.807409e+00
3.859911668792800e-04	1.030223e+02	-1.807397e+00
3.859919200554368e-04	1.036219e+02	-1.807388e+00
3.859922620997429e-04	1.037722e+02	-1.807384e+00
3.859932620997424e-04	1.039252e+02	-1.807372e+00
3.859942620997418e-04	1.039687e+02	-1.807360e+00
3.859952620997413e-04	1.039778e+02	-1.807347e+00
3.859962620997408e-04	1.039824e+02	-1.807335e+00
3.859972620997403e-04	1.039852e+02	-1.807323e+00
3.859982620997397e-04	1.039872e+02	-1.807311e+00
3.859995177668170e-04	1.039890e+02	-1.807295e+00
3.860010948442093e-04	1.039905e+02	-1.807276e+00
3.860026631514295e-04	1.039916e+02	-1.807257e+00
3.860044722970406e-04	1.039923e+02	-1.807235e+00
3.860064338612190e-04	1.039928e+02	-1.807211e+00
3.860089986208216e-04	1.039932e+02	-1.807180e+00
3.860117151136579e-04	1.039934e+02	-1.807147e+00
3.860151527187473e-04	1.039935e+02	-1.807105e+00
3.860189275979378e-04	1.039936e+02	-1.807059e+00
3.860238012997480e-04	1.039936e+02	-1.806999e+00
3.860292981507571e-04	1.039937e+02	-1.806932e+00
3.860363858039090e-04	1.039937e+02	-1.806845e+00
3.860446026333099e-04	1.039937e+02	-1.806745e+00
3.860552693842646e-04	1.039937e+02	-1.806615e+00
3.860679403455726e-04	1.039938e+02	-1.806460e+00
3.860844869181500e-04	1.039938e+02	-1.806258e+00
3.861048403047025e-04	1.039937e+02	-1.806010e+00
3.861135526325166e-04	1.039929e+02	-1.805904e+00
3.861196892293826e-04	1.039902e+02	-1.805829e+00
3.861250023117456e-04	1.039840e+02	-1.805764e+00
3.861319576723421e-04	1.039703e+02	-1.805679e+00
3.861345794551364e-04	1.039639e+02	-1.805647e+00
3.861369406280568e-04	1.039582e+02	-1.805618e+00
3.861400919365973e-04	1.039520e+02	-1.805580e+00
3.861424742889787e-04	1.039483e+02	-1.805551e+00
3.861454657029806e-04	1.039450e+02	-1.805514e+00
3.861488087089256e-04	1.039421e+02	-1.805473e+00
3.861532471195368e-04	1.039392e+02	-1.805419e+00
3.861585228433287e-04	1.039367e+02	-1.805355e+00
3.861656433737058e-04	1.039341e+02	-1.805268e+00
3.861746485981261e-04	1.039318e+02	-1.805158e+00
3.861864288071740e-04	1.039297e+02	-1.805014e+00
3.862017922401338e-04	1.039278e+02	-1.804827e+00
3.862217741409484e-04	1.039262e+02	-1.804583e+00
3.862494985920270e-04	1.039248e+02	-1.804245e+00
3.862852963535321e-04	1.039236e+02	-1.803808e+00
3.863386421269210e-04	1.039226e+02	-1.803158e+00
3.864071551748921e-04	1.039218e+02	-1.802322e+00
3.864767722451500e-04	1.039213e+02	-1.801473e+00
3.865448562929245e-04	1.039209e+02	-1.800643e+00
3.866120197353363e-04	1.039206e+02	-1.799824e+00
3.866801402571916e-04	1.039203e+02	-1.798994e+00
3.867486052800580e-04	1.039202e+02	-1.798159e+00
3.868173658665014e-04	1.039199e+02	-1.797321e+00
3.868861181367707e-04	1.039197e+02	-1.796483e+00
3.869547940924638e-04	1.039195e+02	-1.795646e+00
3.870237702723531e-04	1.039193e+02	-1.794805e+00
3.870923230194466e-04	1.039191e+02	-1.793970e+00
3.871615218314327e-04	1.039190e+02	-1.793127e+00
3.872297521571172e-04	1.039188e+02	-1.792295e+00
3.872992537322338e-04	1.039186e+02	-1.791448e+00
3.873668495135429e-04	1.039184e+02	-1.790625e+00
3.874368307601357e-04	1.039182e+02	-1.789773e+00
3.875032231163769e-04	1.039180e+02	-1.788964e+00
3.875739962233143e-04	1.039178e+02	-1.788102e+00
3.876381335968897e-04	1.039177e+02	-1.787320e+00
3.877234748661633e-04	1.039174e+02	-1.786281e+00
3.878036420137086e-04	1.039172e+02	-1.785305e+00
3.879093940362850e-04	1.039169e+02	-1.784017e+00
3.880207306246088e-04	1.039166e+02	-1.782662e+00
3.881865037962361e-04	1.039162e+02	-1.780644e+00
3.883635649366314e-04	1.039157e+02	-1.778489e+00
3.885403528489616e-04	1.039152e+02	-1.776337e+00
3.887230754096166e-04	1.039147e+02	-1.774114e+00
3.889164196122577e-04	1.039142e+02	-1.771762e+00
3.890953395813378e-04	1.039137e+02	-1.769586e+00
3.892820502656574e-04	1.039132e+02	-1.767316e+00
3.894517267171473e-04	1.039127e+02	-1.765253e+00
3.896119653725959e-04	1.039123e+02	-1.763305e+00
3.897854657655998e-04	1.039118e+02	-1.761196e+00
3.899358151213082e-04	1.039113e+02	-1.759369e+00
3.901044110450023e-04	1.039109e+02	-1.757321e+00
3.902445736845180e-04	1.039105e+02	-1.755618e+00
3.903954094250442e-04	1.039101e+02	-1.753786e+00
3.905603028537125e-04	1.039096e+02	-1.751784e+00
3.907101569181198e-04	1.039092e+02	-1.749964e+00
3.909107922972534e-04	1.039086e+02	-1.747529e+00
3.910940711906348e-04	1.039081e+02	-1.745304e+00
3.913782997959532e-04	1.039073e+02	-1.741855e+00
3.916452180070945e-04	1.039065e+02	-1.738617e+00
3.921790544293771e-04	1.039049e+02	-1.732144e+00
3.926792925008221e-04	1.039035e+02	-1.726082e+00
3.936797686437087e-04	1.039005e+02	-1.713969e+00
3.949710706405325e-04	1.038965e+02	-1.698355e+00
3.975536746341837e-04	1.038884e+02	-1.667199e+00
4.015766304069877e-04	1.038749e+02	-1.618846e+00
4.080632650353098e-04	1.038515e+02	-1.541353e+00
4.185814830362893e-04	1.038115e+02	-1.416894e+00
4.348185178215287e-04	1.037483e+02	-1.227500e+00
4.572788766426215e-04	1.036618e+02	-9.708817e-01
4.885876062928063e-04	1.035430e+02	-6.196084e-01
4.887099060180040e-04	1.035425e+02	-6.182554e-01
4.889545054683961e-04	1.035416e+02	-6.155720e-01
4.892188610647781e-04	1.035406e+02	-6.126726e-01
4.895671608018369e-04	1.035393e+02	-6.088536e-01
4.899475344694176e-04	1.035379e+02	-6.046847e-01
4.904764462125601e-04	1.035360e+02	-5.988905e-01
4.910802064957073e-04	1.035337e+02	-5.922807e-01
4.920897550214180e-04	1.035300e+02	-5.812381e-01
4.933697610205560e-04	1.035253e+02	-5.672570e-01
4.959297730188321e-04	1.035158e+02	-5.393667e-01
5.010497970153842e-04	1.034971e+02	-4.838614e-01
5.112898450084918e-04	1.034597e+02	-3.734514e-01
5.138498570067679e-04	1.034505e+02	-3.460188e-01
5.189698810033200e-04	1.034320e+02	-2.915444e-01
5.292249290667281e-04	1.033953e+02	-1.829172e-01
5.295877879102341e-04	1.033940e+02	-1.790999e-01
5.299506467537401e-04	1.033927e+02	-1.752845e-01
5.303135055972462e-04	1.033914e+02	-1.714708e-01
5.306763644407521e-04	1.033901e+02	-1.676589e-01
5.310392232842581e-04	1.033888e+02	-1.638488e-01
5.314020821277642e-04	1.033875e+02	-1.600405e-01
5.317649409712702e-04	1.033862e+02	-1.562339e-01
5.343249529695462e-04	1.033772e+02	-1.294290e-01
5.353257389100355e-04	1.033736e+02	-1.189552e-01
5.363265248505249e-04	1.033701e+02	-1.084922e-01
5.373273107910141e-04	1.033666e+02	-9.804010e-02
5.383280967315034e-04	1.033630e+02	-8.759877e-02
5.393288826719926e-04	1.033595e+02	-7.716826e-02
5.403296686124820e-04	1.033560e+02	-6.674858e-02
5.413304545529712e-04	1.033525e+02	-5.633971e-02
5.413317045588305e-04	1.033525e+02	-5.632672e-02
5.413342045705490e-04	1.033525e+02	-5.630074e-02
5.413352045705484e-04	1.033525e+02	-5.629035e-02
5.413362045705479e-04	1.033524e+02	-5.627995e-02
5.413372045705474e-04	1.033524e+02	-5.626956e-02
5.413382045705468e-04	1.033524e+02	-5.625917e-02
5.413383295705468e-04	1.033524e+02	-5.625787e-02
5.413385795705467e-04	1.033524e+02	-5.625527e-02
5.413385795706473e-04	1.033524e+02	-5.625527e-02
5.413385795708485e-04	1.033524e+02	-5.625527e-02
5.413385795709491e-04	1.033524e+02	-5.625527e-02
5.413387045709490e-04	1.033524e+02	-5.625398e-02
5.413388295709490e-04	1.033524e+02	-5.625268e-02
5.413389545709489e-04	1.033524e+02	-5.625138e-02
5.413389547346756e-04	1.033524e+02	-5.625138e-02
5.413389547399526e-04	1.033525e+02	-5.625138e-02
5.413390797399525e-04	1.033524e+02	-5.625008e-02
5.413392047399525e-04	1.033524e+02	-5.624878e-02
5.413393297399524e-04	1.033524e+02	-5.624748e-02
5.413395797399523e-04	1.033524e+02	-5.624488e-02
5.413398743662860e-04	1.033524e+02	-5.624182e-02
5.413403618514563e-04	1.033524e+02	-5.623676e-02
5.413408783787772e-04	1.033524e+02	-5.623139e-02
5.413419114334191e-04	1.033524e+02	-5.622065e-02
5.413439763829533e-04	1.033524e+02	-5.619919e-02
5.413455725314827e-04	1.033524e+02	-5.618261e-02
5.413477385721871e-04	1.033524e+02	-5.616010e-02
5.413486862948652e-04	1.033524e+02	-5.615025e-02
5.413492463313858e-04	1.033524e+02	-5.614443e-02
5.413495708668781e-04	1.033524e+02	-5.614106e-02
5.413498400065817e-04	1.033524e+02	-5.613826e-02
5.413498400066823e-04	1.033524e+02	-5.613826e-02
5.413498400067829e-04	1.033524e+02	-5.613826e-02
5.413498400069841e-04	1.033524e+02	-5.613826e-02
5.413508400069836e-04	1.033525e+02	-5.612787e-02
5.413518400069831e-04	1.033530e+02	-5.611748e-02
5.413528400069825e-04	1.033571e+02	-5.610709e-02
5.413538400069820e-04	1.033755e+02	-5.609670e-02
5.413548400069815e-04	1.034136e+02	-5.608630e-02
5.413558400069809e-04	1.034496e+02	-5.607590e-02
5.413568400069804e-04	1.034591e+02	-5.606549e-02
5.413578400069799e-04	1.034473e+02	-5.605509e-02
5.413588400069794e-04	1.034285e+02	-5.604469e-02
5.413598400069788e-04	1.034056e+02	-5.603430e-02
5.413606264309603e-04	1.033824e+02	-5.602612e-02
5.413611575278907e-04	1.033607e+02	-5.602060e-02
5.413616166121994e-04	1.033346e+02	-5.601583e-02
5.413619475924530e-04	1.033078e+02	-5.601239e-02
5.413622735783476e-04	1.032690e+02	-5.600901e-02
5.413626090187175e-04	1.032086e+02	-5.600553e-02
5.413629458678806e-04	1.031202e+02	-5.600203e-02
5.413633287490935e-04	1.029940e+02	-5.599806e-02
5.413636519513362e-04	1.028787e+02	-5.599472e-02
5.413640502135372e-04	1.027349e+02	-5.599060e-02
5.413644678306170e-04	1.025843e+02	-5.598630e-02
5.413653030647801e-04	1.022825e+02	-5.597769e-02
5.413658484516894e-04	1.020821e+02	-5.597209e-02
5.413661572644390e-04	1.019586e+02	-5.596892e-02
5.413663938509186e-04	1.018392e+02	-5.596649e-02
5.413665602189525e-04	1.017077e+02	-5.596479e-02
5.413667013643222e-04	1.015086e+02	-5.596335e-02
5.413668411300698e-04	1.011451e+02	-5.596193e-02
5.413670160992340e-04	1.003776e+02	-5.596015e-02
5.413671754936102e-04	9.941191e+01	-5.595855e-02
5.413671755001292e-04	9.941187e+01	-5.595855e-02
5.413671755131674e-04	9.941174e+01	-5.595855e-02
5.413671755135734e-04	9.941173e+01	-5.595855e-02
5.413671755136740e-04	9.941171e+01	-5.595855e-02
5.413681755136734e-04	8.101949e+01	-5.595082e-02
5.413691755136729e-04	5.957932e+01	-5.594480e-02
5.413701755136724e-04	3.684857e+01	-5.594106e-02
5.413711755136719e-04	1.531900e+01	-5.593899e-02
5.413712998053773e-04	1.299469e+01	-5.593881e-02
5.413715483887881e-04	8.949890e+00	-5.593853e-02
5.413716105346390e-04	8.025696e+00	-5.593847e-02
5.413717348263444e-04	6.418915e+00	-5.593838e-02
5.413719834097552e-04	3.546722e+00	-5.593823e-02
5.413719834145639e-04	3.546692e+00	-5.593823e-02
5.413729834145634e-04	1.181580e+00	-5.593806e-02
5.413729834450806e-04	1.181519e+00	-5.593806e-02
5.413729835061151e-04	1.181396e+00	-5.593806e-02
5.413729835213738e-04	1.181396e+00	-5.593806e-02
5.413729835518910e-04	1.181366e+00	-5.593806e-02
5.413729835595203e-04	1.181366e+00	-5.593806e-02
5.413739835595198e-04	1.169556e+00	-5.593789e-02
5.413749835595193e-04	1.162842e+00	-5.593771e-02
5.413759835595187e-04	1.159424e+00	-5.593754e-02
5.413766927990782e-04	1.157532e+00	-5.593742e-02
5.413775478946836e-04	1.155701e+00	-5.593728e-02
5.413784039811180e-04	1.154144e+00	-5.593713e-02
5.413793676548248e-04	1.152710e+00	-5.593696e-02
5.413805730686561e-04	1.151215e+00	-5.593676e-02
5.413816853674994e-04	1.150024e+00	-5.593657e-02
5.413828114190500e-04	1.149017e+00	-5.593637e-02
5.413838886919042e-04	1.148163e+00	-5.593619e-02
5.413850477035929e-04	1.147369e+00	-5.593599e-02
5.413862284149723e-04	1.146667e+00	-5.593579e-02
5.413874991724646e-04	1.145996e+00	-5.593557e-02
5.413888354029173e-04	1.145355e+00	-5.593535e-02
5.413902985434010e-04	1.144745e+00	-5.593510e-02
5.413918957984931e-04	1.144165e+00	-5.593482e-02
5.413936909336552e-04	1.143616e+00	-5.593452e-02
5.413957129148904e-04	1.143066e+00	-5.593418e-02
5.413980417334381e-04	1.142517e+00	-5.593378e-02
5.414007347185751e-04	1.141998e+00	-5.593332e-02
5.414039026656221e-04	1.141510e+00	-5.593278e-02
5.414076427148785e-04	1.141022e+00	-5.593215e-02
5.414121168808954e-04	1.140594e+00	-5.593139e-02
5.414174899382972e-04	1.140137e+00	-5.593047e-02
5.414240147386395e-04	1.139801e+00	-5.592936e-02
5.414319760832162e-04	1.139496e+00	-5.592801e-02
5.414417878330038e-04	1.139282e+00	-5.592635e-02
5.414539538989988e-04	1.139130e+00	-5.592428e-02
5.414691841483070e-04	1.138977e+00	-5.592169e-02
5.414884009315689e-04	1.138916e+00	-5.591843e-02
5.415128841690792e-04	1.138855e+00	-5.591427e-02
5.415443682961069e-04	1.138794e+00	-5.590892e-02
5.415861881343104e-04	1.138733e+00	-5.590182e-02
5.416432551233058e-04	1.138672e+00	-5.589214e-02
5.417068466954840e-04	1.138580e+00	-5.588134e-02
5.417640803669424e-04	1.138489e+00	-5.587162e-02
5.418346209629700e-04	1.138397e+00	-5.585966e-02
5.418992295876460e-04	1.138306e+00	-5.584869e-02
5.419703174748755e-04	1.138184e+00	-5.583663e-02
5.420360403247636e-04	1.138092e+00	-5.582548e-02
5.421065382856145e-04	1.137970e+00	-5.581352e-02
5.421734334437878e-04	1.137878e+00	-5.580217e-02
5.422436966824561e-04	1.137787e+00	-5.579026e-02
5.423112604661245e-04	1.137695e+00	-5.577880e-02
5.423812006455850e-04	1.137604e+00	-5.576694e-02
5.424491615790873e-04	1.137512e+00	-5.575542e-02
5.425188795799285e-04	1.137360e+00	-5.574360e-02
5.425870816575702e-04	1.137268e+00	-5.573205e-02
5.426566639356936e-04	1.137177e+00	-5.572025e-02
5.427249605064917e-04	1.137085e+00	-5.570868e-02
5.427973637388873e-04	1.136993e+00	-5.569642e-02
5.428754845550957e-04	1.136871e+00	-5.568319e-02
5.429724759245282e-04	1.136749e+00	-5.566676e-02
5.430840298499030e-04	1.136566e+00	-5.564787e-02
5.432304006789852e-04	1.136353e+00	-5.562309e-02
5.434153775137028e-04	1.136108e+00	-5.559179e-02
