time	V(vds)	V(vgs)	Id(M1)
0.000000000000000e+000	5.000000e+000	5.218712e-003	5.699145e-011
9.999999960041972e-012	5.000000e+000	5.222254e-003	-1.804451e-007
1.076651229945434e-011	5.000000e+000	5.222538e-003	-1.950338e-007
1.229953697827906e-011	5.000000e+000	5.223166e-003	-2.277754e-007
1.536558633592852e-011	5.000000e+000	5.224639e-003	-3.065690e-007
2.149768505122743e-011	5.000000e+000	5.228461e-003	-5.179770e-007
3.376188248182525e-011	5.000000e+000	5.239564e-003	-1.150896e-006
5.829027734302088e-011	5.000001e+000	5.275486e-003	-3.228946e-006
1.073470670654122e-010	5.000004e+000	5.395304e-003	-1.012524e-005
1.819006229808466e-010	5.000017e+000	5.684738e-003	-2.647487e-005
2.655756692784002e-010	5.000043e+000	6.154520e-003	-5.240731e-005
3.286233473431068e-010	5.000075e+000	6.624270e-003	-7.772637e-005
3.819129200472425e-010	5.000113e+000	7.115241e-003	-1.036025e-004
4.336726127163171e-010	5.000164e+000	7.678341e-003	-1.326529e-004
4.929916551032726e-010	5.000237e+000	8.427233e-003	-1.704555e-004
5.582794516960856e-010	5.000341e+000	9.386444e-003	-2.176677e-004
6.448893480019493e-010	5.000522e+000	1.087585e-002	-2.888468e-004
7.437481021362050e-010	5.000794e+000	1.288035e-002	-3.812865e-004
8.663469126600334e-010	5.001240e+000	1.581676e-002	-5.111551e-004
1.000000000000000e-009	5.001829e+000	1.941317e-002	-6.652661e-004
1.040095926201990e-009	5.002053e+000	2.060879e-002	-7.133431e-004
1.093557161137977e-009	5.002378e+000	2.218151e-002	-7.729891e-004
1.200479631009950e-009	5.003110e+000	2.523979e-002	-8.770913e-004
1.414324570753897e-009	5.004793e+000	3.107328e-002	-1.041572e-003
1.693298683608126e-009	5.007301e+000	3.819405e-002	-1.188144e-003
2.098688505860112e-009	5.011342e+000	4.783624e-002	-1.309515e-003
2.574330709009689e-009	5.016399e+000	5.860885e-002	-1.379932e-003
3.255510334702628e-009	5.024035e+000	7.464310e-002	-1.471453e-003
3.932614227668714e-009	5.032483e+000	9.456352e-002	-1.710116e-003
4.653693140988121e-009	5.043532e+000	1.238519e-001	-2.228687e-003
5.344546459866688e-009	5.057373e+000	1.612079e-001	-2.926409e-003
6.099794073849032e-009	5.077450e+000	2.124636e-001	-3.762064e-003
7.253128777375699e-009	5.116808e+000	3.059977e-001	-4.982992e-003
8.644302754967052e-009	5.175001e+000	4.361847e-001	-6.346142e-003
1.050932329388168e-008	5.263548e+000	6.278774e-001	-8.360705e-003
1.140897005589442e-008	5.307884e+000	7.237121e-001	-9.698962e-003
1.205409521950071e-008	5.338420e+000	7.915399e-001	-1.096858e-002
1.275362957011375e-008	5.368033e+000	8.620213e-001	-1.259210e-002
1.361289181471440e-008	5.399060e+000	9.446390e-001	-1.465490e-002
1.440085897958155e-008	5.422389e+000	1.016505e+000	-1.630236e-002
1.518865429282297e-008	5.441071e+000	1.084432e+000	-1.752590e-002
1.600400441557928e-008	5.456684e+000	1.151283e+000	-1.837340e-002
1.677404077765176e-008	5.468633e+000	1.211666e+000	-1.887466e-002
1.776619817469688e-008	5.480810e+000	1.285937e+000	-1.922062e-002
1.953697648431320e-008	5.496857e+000	1.410757e+000	-1.938285e-002
2.307853310354584e-008	5.519198e+000	1.643180e+000	-1.901799e-002
2.659644974357088e-008	5.533648e+000	1.853200e+000	-1.829899e-002
3.322270880967810e-008	5.550093e+000	2.205143e+000	-1.671496e-002
4.021039031694635e-008	5.560569e+000	2.528942e+000	-1.507754e-002
4.928226003695378e-008	5.567987e+000	2.886297e+000	-1.315458e-002
5.844317581911970e-008	5.571570e+000	3.186787e+000	-1.147830e-002
7.085284611163265e-008	5.572524e+000	3.514265e+000	-9.469762e-003
8.620731885574775e-008	5.569643e+000	3.841471e+000	-5.600298e-003
9.375607884931734e-008	5.564143e+000	3.971912e+000	6.334026e-004
9.899215855947545e-008	5.552684e+000	4.044327e+000	1.102818e-002
1.038031876686491e-007	5.523635e+000	4.092474e+000	2.296996e-002
1.085724776718833e-007	5.461869e+000	4.115135e+000	2.681938e-002
1.102016326246126e-007	5.420907e+000	4.109295e+000	2.122009e-002
1.113768300512615e-007	5.378132e+000	4.096289e+000	1.436754e-002
1.129392476836139e-007	5.317370e+000	4.076508e+000	7.655105e-003
1.138484722445524e-007	5.285268e+000	4.067216e+000	5.632093e-003
1.151884556939913e-007	5.244215e+000	4.057749e+000	4.214886e-003
1.164018575560861e-007	5.211458e+000	4.052122e+000	3.518386e-003
1.184195803864094e-007	5.162813e+000	4.046584e+000	2.929912e-003
1.203085504085263e-007	5.120861e+000	4.043637e+000	2.626447e-003
1.229219938018813e-007	5.066288e+000	4.041540e+000	2.404986e-003
1.257030880133404e-007	5.010530e+000	4.040318e+000	2.255186e-003
1.302269365090891e-007	4.922859e+000	4.039142e+000	2.092845e-003
1.356654871776408e-007	4.821482e+000	4.038094e+000	1.935383e-003
1.465425885147443e-007	4.630221e+000	4.036347e+000	1.691136e-003
1.631527978700369e-007	4.364589e+000	4.034164e+000	1.422748e-003
1.923010244789958e-007	3.953308e+000	4.031556e+000	1.165014e-003
2.215760938276947e-007	3.589266e+000	4.030346e+000	1.094033e-003
2.481806381543778e-007	3.292125e+000	4.030333e+000	1.156210e-003
2.781442467396179e-007	2.980598e+000	4.031163e+000	1.323273e-003
3.125376179992389e-007	2.638827e+000	4.032813e+000	1.600618e-003
3.486667561728839e-007	2.290411e+000	4.035115e+000	1.972403e-003
3.950265471723081e-007	1.852417e+000	4.038714e+000	2.557732e-003
4.595396076450356e-007	1.252083e+000	4.044652e+000	3.545184e-003
5.432965984531379e-007	4.816237e-001	4.053644e+000	5.041970e-003
5.796071292205134e-007	1.616384e-001	4.066479e+000	5.691231e-003
5.952713088158447e-007	4.849263e-002	4.090520e+000	5.814921e-003
6.005723016029636e-007	2.786725e-002	4.111871e+000	5.820247e-003
6.061372954755734e-007	2.038101e-002	4.144495e+000	5.891138e-003
6.082279427550114e-007	1.863755e-002	4.157225e+000	5.934188e-003
6.110399707947080e-007	1.670002e-002	4.174213e+000	5.986761e-003
6.143042336817194e-007	1.492514e-002	4.193868e+000	6.053829e-003
6.175912880511531e-007	1.350945e-002	4.213343e+000	6.124617e-003
6.241653967900206e-007	1.135812e-002	4.251334e+000	6.265429e-003
6.309326117534736e-007	9.768017e-003	4.288796e+000	6.414850e-003
6.430443420745064e-007	7.873988e-003	4.351830e+000	6.684150e-003
6.550913877496285e-007	6.658408e-003	4.409183e+000	6.954921e-003
6.748571441233331e-007	5.481620e-003	4.492170e+000	7.400482e-003
6.997192429132544e-007	4.657231e-003	4.579051e+000	7.962974e-003
7.445395280153360e-007	3.978353e-003	4.697604e+000	8.977553e-003
8.100829145936379e-007	3.681944e-003	4.809527e+000	1.046197e-002
9.411696877502417e-007	3.872142e-003	4.927159e+000	1.342929e-002
1.070582666992914e-006	4.412630e-003	4.975738e+000	1.635593e-002
1.273163371863774e-006	5.515573e-003	4.995919e+000	2.092834e-002
1.514312894378313e-006	6.914776e-003	5.001086e+000	2.635670e-002
1.994815905745181e-006	9.744270e-003	5.001769e+000	3.712421e-002
2.763925794574801e-006	1.425022e-002	5.001777e+000	5.420596e-002
3.763925794574802e-006	2.004490e-002	5.001768e+000	7.610461e-002
4.763925794574801e-006	2.577554e-002	5.001759e+000	9.770261e-002
4.834329999999999e-006	2.617496e-002	5.001758e+000	9.920488e-002
4.975138410850395e-006	2.696777e-002	5.001758e+000	1.021826e-001
5.256755232551187e-006	2.854897e-002	5.001756e+000	1.081187e-001
5.271096356598415e-006	2.862924e-002	5.001756e+000	1.084197e-001
5.299778604692873e-006	2.878943e-002	5.001756e+000	1.090204e-001
5.357143100881787e-006	2.910955e-002	5.001755e+000	1.102210e-001
5.471872093259615e-006	2.974843e-002	5.001754e+000	1.126162e-001
5.604872015244342e-006	3.048681e-002	5.001751e+000	1.153785e-001
5.605872015244342e-006	3.049275e-002	5.001752e+000	1.154034e-001
5.607872015244341e-006	3.050447e-002	5.001752e+000	1.154513e-001
5.611872015244340e-006	3.052642e-002	5.001752e+000	1.155313e-001
5.619872015244337e-006	3.057086e-002	5.001752e+000	1.156989e-001
5.635872015244331e-006	3.065948e-002	5.001751e+000	1.160303e-001
5.667872015244320e-006	3.083668e-002	5.001751e+000	1.166944e-001
5.731872015244298e-006	3.119117e-002	5.001751e+000	1.180284e-001
5.732872015244297e-006	3.119651e-002	5.001751e+000	1.180452e-001
5.734872015244297e-006	3.120726e-002	5.001750e+000	1.180806e-001
5.738872015244295e-006	3.122949e-002	5.001750e+000	1.181663e-001
5.746872015244293e-006	3.127363e-002	5.001750e+000	1.183304e-001
5.762872015244287e-006	3.136203e-002	5.001750e+000	1.186620e-001
5.794872015244276e-006	3.153896e-002	5.001750e+000	1.193308e-001
5.795872015244276e-006	3.154435e-002	5.001750e+000	1.193478e-001
5.797872015244275e-006	3.155518e-002	5.001750e+000	1.193834e-001
5.801872015244273e-006	3.157734e-002	5.001750e+000	1.194688e-001
5.809872015244271e-006	3.162144e-002	5.001750e+000	1.196331e-001
5.818330000000005e-006	3.166789e-002	5.001750e+000	1.198011e-001
5.819330000000004e-006	3.167349e-002	5.001750e+000	1.198246e-001
5.821330000000003e-006	3.168469e-002	5.001750e+000	1.198715e-001
5.825330000000002e-006	3.170685e-002	5.001750e+000	1.199577e-001
5.826330000000002e-006	3.171232e-002	5.001750e+000	1.199766e-001
5.828330000000001e-006	3.172323e-002	5.001750e+000	1.200142e-001
5.830330000000000e-006	3.173416e-002	5.001750e+000	1.200519e-001
5.831330000000000e-006	3.173977e-002	5.001750e+000	1.200760e-001
5.832330000000000e-006	3.174529e-002	5.001750e+000	1.200968e-001
5.833329999999999e-006	3.175079e-002	5.001750e+000	1.201173e-001
5.834329999999999e-006	3.173338e-002	5.001748e+000	1.191857e-001
5.834429999999999e-006	3.174773e-002	5.001706e+000	1.198119e-001
5.834629999999999e-006	3.175315e-002	5.001605e+000	1.201449e-001
5.834929999999999e-006	3.174705e-002	5.001418e+000	1.201522e-001
5.835329999999999e-006	3.173774e-002	5.001134e+000	1.201881e-001
5.835370000000000e-006	3.173640e-002	5.001115e+000	1.201712e-001
5.835449999999999e-006	3.173475e-002	5.001082e+000	1.201625e-001
5.835610000000000e-006	3.173338e-002	5.001031e+000	1.201651e-001
5.835930000000000e-006	3.173304e-002	5.000938e+000	1.201713e-001
5.836530373318135e-006	3.173278e-002	5.000708e+000	1.201837e-001
5.837491862588768e-006	3.172119e-002	4.999981e+000	1.202045e-001
5.838869747148745e-006	3.167213e-002	4.997951e+000	1.202354e-001
5.839680157921910e-006	3.161449e-002	4.995861e+000	1.202546e-001
5.840131865303218e-006	3.156057e-002	4.993998e+000	1.202669e-001
5.840448227607326e-006	3.150048e-002	4.992006e+000	1.202780e-001
5.840740803032605e-006	3.142356e-002	4.989634e+000	1.202870e-001
5.841071619186935e-006	3.133417e-002	4.986977e+000	1.202909e-001
5.841339086255570e-006	3.128269e-002	4.985199e+000	1.202910e-001
5.841636281649185e-006	3.125460e-002	4.983614e+000	1.202917e-001
5.841888993542368e-006	3.124963e-002	4.982495e+000	1.202937e-001
5.842159915974607e-006	3.125861e-002	4.981464e+000	1.202970e-001
5.842456781801569e-006	3.127816e-002	4.980451e+000	1.203016e-001
5.842762225783452e-006	3.130492e-002	4.979491e+000	1.203071e-001
5.843373113747219e-006	3.136612e-002	4.977685e+000	1.203191e-001
5.844070667568687e-006	3.143872e-002	4.975701e+000	1.203334e-001
5.845465775211624e-006	3.158051e-002	4.971839e+000	1.203624e-001
5.847806265637471e-006	3.178680e-002	4.964951e+000	1.204120e-001
5.850159401023855e-006	3.185350e-002	4.954458e+000	1.204680e-001
5.851794021097919e-006	3.167192e-002	4.940106e+000	1.205097e-001
5.853564008706519e-006	3.131215e-002	4.915895e+000	1.205467e-001
5.855300103747063e-006	3.106383e-002	4.886919e+000	1.205756e-001
5.857096780518204e-006	3.108778e-002	4.852852e+000	1.206054e-001
5.860690134060484e-006	3.190478e-002	4.777108e+000	1.206655e-001
5.865836274628002e-006	3.459420e-002	4.659567e+000	1.207499e-001
5.871520244082762e-006	4.022117e-002	4.523026e+000	1.208338e-001
5.877506446655092e-006	5.158718e-002	4.378400e+000	1.208896e-001
5.883986381373419e-006	7.515557e-002	4.229243e+000	1.208539e-001
5.888432887003197e-006	1.069584e-001	4.139922e+000	1.206624e-001
5.891845613104029e-006	1.552094e-001	4.091409e+000	1.202586e-001
5.895342305095401e-006	2.367397e-001	4.068256e+000	1.197838e-001
5.898807259841295e-006	3.397489e-001	4.063396e+000	1.196276e-001
5.902311693875392e-006	4.504014e-001	4.063555e+000	1.196741e-001
5.906064737881382e-006	5.691558e-001	4.063693e+000	1.197184e-001
5.913570825893364e-006	8.074005e-001	4.063988e+000	1.197999e-001
5.928583001917327e-006	1.285306e+000	4.064487e+000	1.199344e-001
5.942330969666253e-006	1.724997e+000	4.064790e+000	1.200117e-001
5.964764863557936e-006	2.452707e+000	4.064816e+000	1.199940e-001
5.990703832000767e-006	3.325603e+000	4.063723e+000	1.196207e-001
6.004747504631122e-006	3.846225e+000	4.061780e+000	1.189534e-001
6.016791721609141e-006	4.367452e+000	4.058179e+000	1.176203e-001
6.025586315726641e-006	4.818025e+000	4.053785e+000	1.157992e-001
6.031203289429883e-006	5.148078e+000	4.049226e+000	1.132618e-001
6.034040515235207e-006	5.323049e+000	4.041598e+000	1.064059e-001
6.035715269707961e-006	5.415648e+000	4.026348e+000	9.324988e-002
6.037019860107799e-006	5.470195e+000	4.001355e+000	7.626438e-002
6.038416470390299e-006	5.510344e+000	3.961588e+000	5.772984e-002
6.040395435059118e-006	5.548578e+000	3.892092e+000	3.864451e-002
6.042574339495495e-006	5.576687e+000	3.806042e+000	2.739010e-002
6.044813751790147e-006	5.595974e+000	3.711706e+000	2.277206e-002
6.047429907171576e-006	5.611398e+000	3.598434e+000	2.074259e-002
6.051283194287806e-006	5.626958e+000	3.431886e+000	1.912129e-002
6.057706529627047e-006	5.644461e+000	3.163131e+000	1.703143e-002
6.065887934892090e-006	5.659459e+000	2.842828e+000	1.474976e-002
6.074791339860804e-006	5.670235e+000	2.532076e+000	1.263572e-002
6.088904025428649e-006	5.681559e+000	2.111717e+000	9.859039e-003
6.102828457514727e-006	5.689175e+000	1.770898e+000	7.644310e-003
6.116568602199967e-006	5.694288e+000	1.505299e+000	5.924879e-003
6.131067840191445e-006	5.698088e+000	1.287966e+000	4.511292e-003
6.146739763280152e-006	5.701015e+000	1.109894e+000	3.340768e-003
6.163666095038497e-006	5.703237e+000	9.696423e-001	2.406848e-003
6.184426559114415e-006	5.705060e+000	8.519071e-001	1.621776e-003
6.213068688796168e-006	5.706633e+000	7.479844e-001	9.493819e-004
6.244197660288655e-006	5.707607e+000	6.799330e-001	5.401241e-004
6.277845058593658e-006	5.708127e+000	6.378252e-001	3.161871e-004
6.319769899396926e-006	5.708388e+000	6.077386e-001	1.818646e-004
6.372243704844931e-006	5.708451e+000	5.859473e-001	1.048493e-004
6.443003669193564e-006	5.708364e+000	5.688443e-001	6.089084e-005
6.538348485884059e-006	5.708153e+000	5.550205e-001	3.682535e-005
6.677761145005345e-006	5.707801e+000	5.424472e-001	2.281416e-005
6.875774449658569e-006	5.707276e+000	5.309848e-001	1.459014e-005
7.204010918436496e-006	5.706370e+000	5.186474e-001	8.928337e-006
7.689416653418402e-006	5.704951e+000	5.066615e-001	5.336710e-006
8.460913607858066e-006	5.702509e+000	4.939785e-001	2.896410e-006
9.460913607858067e-006	5.699021e+000	4.823592e-001	1.374787e-006
1.046091360785807e-005	5.695122e+000	4.735253e-001	5.266211e-007
1.146091360785807e-005	5.690734e+000	4.662201e-001	-4.753656e-008
1.246091360785807e-005	5.685781e+000	4.597163e-001	-5.086813e-007
1.346091360785807e-005	5.680161e+000	4.536146e-001	-9.274081e-007
1.446091360785807e-005	5.673730e+000	4.476361e-001	-1.346693e-006
1.546091360785807e-005	5.666545e+000	4.416142e-001	-1.791247e-006
1.566700000000000e-005	5.664910e+000	4.403400e-001	-1.893601e-006
1.607917278428387e-005	5.661430e+000	4.377346e-001	-4.992183e-007
1.608017278428387e-005	5.661421e+000	4.377281e-001	-1.356252e-006
1.608217278428386e-005	5.661404e+000	4.377149e-001	-2.608186e-006
1.608617278428386e-005	5.661368e+000	4.376889e-001	-1.942553e-006
1.609264577352972e-005	5.661311e+000	4.376472e-001	-2.252431e-006
1.610559175202144e-005	5.661196e+000	4.375635e-001	-2.057958e-006
1.613148370900488e-005	5.660966e+000	4.373958e-001	-2.172206e-006
1.618326762297176e-005	5.660502e+000	4.370590e-001	-2.151370e-006
1.628683545090553e-005	5.659558e+000	4.363800e-001	-2.233300e-006
1.645986434413247e-005	5.657959e+000	4.352367e-001	-3.964174e-006
1.646086434413247e-005	5.657949e+000	4.352300e-001	-3.166377e-006
1.646286434413247e-005	5.657931e+000	4.352166e-001	-1.936830e-006
1.646686434413246e-005	5.657893e+000	4.351898e-001	-2.521247e-006
1.647486434413245e-005	5.657817e+000	4.351363e-001	-2.242763e-006
1.649086434413243e-005	5.657666e+000	4.350291e-001	-2.392085e-006
1.652286434413240e-005	5.657361e+000	4.348140e-001	-2.342028e-006
1.658686434413232e-005	5.656747e+000	4.343825e-001	-1.007089e-006
1.658786434413232e-005	5.656737e+000	4.343758e-001	-1.682153e-006
1.658986434413232e-005	5.656718e+000	4.343623e-001	-2.744394e-006
1.659386434413231e-005	5.656679e+000	4.343352e-001	-2.265031e-006
1.660096671994239e-005	5.656610e+000	4.342870e-001	-2.503561e-006
1.661517147156256e-005	5.656473e+000	4.341906e-001	-2.386204e-006
1.663859049675967e-005	5.656245e+000	4.340313e-001	-1.265634e-006
1.663959049675967e-005	5.656235e+000	4.340246e-001	-1.814253e-006
1.664159049675967e-005	5.656216e+000	4.340110e-001	-2.729725e-006
1.664559049675967e-005	5.656177e+000	4.339837e-001	-2.330967e-006
1.665211005572458e-005	5.656113e+000	4.339392e-001	-2.027834e-006
1.665396088207017e-005	5.656095e+000	4.339266e-001	-2.151235e-006
1.665766253476134e-005	5.656059e+000	4.339014e-001	-2.199643e-006
1.665959669461765e-005	5.656040e+000	4.338882e-001	-2.183750e-006
1.666346501433026e-005	5.656002e+000	4.338618e-001	-1.753720e-006
1.666446501433026e-005	5.655992e+000	4.338550e-001	-3.159684e-006
1.666500000000000e-005	5.655987e+000	4.338514e-001	-3.163356e-006
1.666593002866052e-005	5.655978e+000	4.338450e-001	-2.322459e-006
1.666700000000000e-005	5.655967e+000	4.338353e-001	1.717799e-005
1.666700234091884e-005	5.655967e+000	4.338364e-001	1.478532e-005
1.666700702275650e-005	5.655967e+000	4.338384e-001	1.081056e-005
1.666701638643183e-005	5.655967e+000	4.338432e-001	5.297461e-006
1.666703297583033e-005	5.655967e+000	4.338559e-001	-9.955230e-007
1.666705007278770e-005	5.655967e+000	4.338767e-001	-6.003930e-006
1.666708426670242e-005	5.655967e+000	4.339460e-001	-1.817255e-005
1.666715265453187e-005	5.655968e+000	4.341816e-001	-5.851886e-005
1.666726801850283e-005	5.655972e+000	4.348449e-001	-1.725339e-004
1.666741930344736e-005	5.655981e+000	4.362489e-001	-4.096465e-004
1.666761769270876e-005	5.655999e+000	4.389305e-001	-8.503351e-004
1.666775847760510e-005	5.656017e+000	4.415818e-001	-1.267880e-003
1.666800000000000e-005	5.656057e+000	4.471521e-001	-2.119053e-003
1.666802415223949e-005	5.656062e+000	4.478045e-001	-2.214677e-003
1.666807245671847e-005	5.656071e+000	4.490893e-001	-2.398691e-003
1.666816906567643e-005	5.656089e+000	4.515492e-001	-2.727839e-003
1.666836228359235e-005	5.656122e+000	4.560407e-001	-3.240983e-003
1.666874871942418e-005	5.656179e+000	4.639295e-001	-3.915869e-003
1.666914955554589e-005	5.656230e+000	4.710313e-001	-4.287818e-003
1.666955461411173e-005	5.656274e+000	4.774053e-001	-4.433008e-003
1.666998034056257e-005	5.656317e+000	4.836648e-001	-4.470550e-003
1.667055495125752e-005	5.656372e+000	4.918746e-001	-4.467173e-003
1.667170417264743e-005	5.656488e+000	5.093716e-001	-4.627640e-003
1.667253520568307e-005	5.656607e+000	5.269988e-001	-5.430856e-003
1.667351841914822e-005	5.656826e+000	5.584197e-001	-7.629319e-003
1.667426123148883e-005	5.657056e+000	5.907198e-001	-9.930902e-003
1.667510431175449e-005	5.657375e+000	6.355816e-001	-1.266465e-002
1.667614976529586e-005	5.657828e+000	6.998451e-001	-1.561081e-002
1.667804899061245e-005	5.658726e+000	8.293203e-001	-1.989578e-002
1.667911246297501e-005	5.659250e+000	9.063828e-001	-2.165203e-002
1.667981889350664e-005	5.659596e+000	9.586425e-001	-2.233393e-002
1.668049217208752e-005	5.659914e+000	1.007806e+000	-2.262023e-002
1.668117079534325e-005	5.660225e+000	1.056836e+000	-2.273236e-002
1.668190242834507e-005	5.660551e+000	1.109362e+000	-2.277400e-002
1.668264256838596e-005	5.660869e+000	1.161869e+000	-2.272110e-002
1.668351502872909e-005	5.661228e+000	1.222674e+000	-2.253650e-002
1.668438622140584e-005	5.661569e+000	1.282212e+000	-2.227051e-002
1.668531057168965e-005	5.661912e+000	1.344174e+000	-2.195587e-002
1.668634670773104e-005	5.662274e+000	1.411972e+000	-2.159748e-002
1.668841897981382e-005	5.662930e+000	1.542763e+000	-2.088758e-002
1.669175990740908e-005	5.663846e+000	1.742826e+000	-1.978188e-002
